
**** 11/05/21 13:13:14 ******* PSpice 17.4.0 (Nov 2018) ******* ID# 0 ********

 ** Profile: "SCHEMATIC1-test1"  [ C:\Modeling\TLV3601_ti\TLV3601-PSpiceFiles\SCHEMATIC1\test1.sim ] 


 ****     CIRCUIT DESCRIPTION


******************************************************************************




** Creating circuit file "test1.cir" 
** WARNING: THIS AUTOMATICALLY GENERATED FILE MAY BE OVERWRITTEN BY SUBSEQUENT SIMULATIONS

*Libraries: 
* Profile Libraries :
* Local Libraries :
.LIB "../../../tlv3601.lib" 
* From [PSPICE NETLIST] section of C:\SPB_DATA\cdssetup\OrCAD_PSpice\17.4.0\PSpice.ini file:
.lib "nom.lib" 

*Analysis directives: 
.TRAN  0 5u 0 
.OPTIONS ADVCONV
.PROBE64 V(alias(*)) I(alias(*)) W(alias(*)) D(alias(*)) NOISE(alias(*)) 
.INC "..\SCHEMATIC1.net" 



**** INCLUDING SCHEMATIC1.net ****
* source TLV3601
.EXTERNAL INPUT IN+
.EXTERNAL INPUT IN-
.EXTERNAL INPUT V+
.EXTERNAL INPUT OUT
.EXTERNAL INPUT V-
X_U1         IN+ IN- V+ V- OUT TLV3601
V_V+1         V- 0 -2.5
V_VINN         IN- 0 0
V_V+         V+ 0 2.5
V_V1         IN+ 0  
+SIN 0 100m 500k 0 0 0
R_R3         V- OUT  1k TC=0,0 

**** RESUMING test1.cir ****
.END

**** 11/05/21 13:13:14 ******* PSpice 17.4.0 (Nov 2018) ******* ID# 0 ********

 ** Profile: "SCHEMATIC1-test1"  [ C:\Modeling\TLV3601_ti\TLV3601-PSpiceFiles\SCHEMATIC1\test1.sim ] 


 ****     Voltage Controlled Switch MODEL PARAMETERS


******************************************************************************




               X_U1.X_U5.X_SMID._SMID 
         RON    1            
        ROFF    1.000000E+12 
         VON    0            
        VOFF    1            


               X_U1.X_U5.X_SHIZ._SHIZ 
         RON    1            
        ROFF    1.000000E+12 
         VON    0            
        VOFF    1            


               X_U1.X_U5.X_SVOH._SVOH 
         RON    1            
        ROFF    1.000000E+12 
         VON    1            
        VOFF    0            


               X_U1.X_U5.X_SVOL._SVOL 
         RON    1            
        ROFF    1.000000E+12 
         VON    0            
        VOFF    1            


**** 11/05/21 13:13:14 ******* PSpice 17.4.0 (Nov 2018) ******* ID# 0 ********

 ** Profile: "SCHEMATIC1-test1"  [ C:\Modeling\TLV3601_ti\TLV3601-PSpiceFiles\SCHEMATIC1\test1.sim ] 


 ****     INITIAL TRANSIENT SOLUTION       TEMPERATURE =   27.000 DEG C


******************************************************************************



 NODE   VOLTAGE     NODE   VOLTAGE     NODE   VOLTAGE     NODE   VOLTAGE


(   V+)    2.5000  (   V-)   -2.5000  (  IN+)    0.0000  (  IN-)    0.0000      

(  OUT)    2.2081  (X_U1.N21103)    2.4752               (X_U1.N21168)   -2.5000

(X_U1.N21237)    0.0000               (X_U1.IN+BUFF)    0.0000                  

(X_U1.IN-BUFF)    0.0000              (X_U1.N785573) 500.0E-06                  

(X_U1.N786723)    0.0000              (X_U1.N843683)    2.5000                  

(X_U1.N852568)     .0030              (X_U1.N855697)    1.2376                  

(X_U1.N855707)    4.9752              (X_U1.X_U3.VH)     .0015                  

(X_U1.X_U5.1V)    1.0000              (X_U1.X_U7.1V)    1.0000                  

(X_U1.X_U3.OUT)    2.5000             (X_U1.X_U5.MID)    0.0000                 

(X_U1.V+_BUFFER)    2.5000            (X_U1.V-_BUFFER)   -2.5000                

(X_U1.X_U3.VMID)    0.0000            (X_U1.X_U2.N20155)    2.8000              

(X_U1.X_U2.N20415)   -2.8000          (X_U1.X_U2.N20531)   -2.5000              

(X_U1.X_U2.N20539)   -2.8000          (X_U1.X_U2.N20826)   -2.5000              

(X_U1.X_U2.N20833)   -2.5000          (X_U1.X_U2.N20840)   -2.5000              

(X_U1.X_U3.INNNEW)    -.0015          (X_U1.X_U4.N03175)    1.2376              

(X_U1.X_U5.X_U3.3)    2.5000          (X_U1.X_U5.X_U8.6)    0.0000              

(X_U1.X_U7.N16973)    5.0000          (X_U1.X_U7.N20310)    2.3990              

(X_U1.X_U7.N20377)    5.5100          (X_U1.X_U2.N202710)    2.8000             

(X_U1.X_U2.X_U24.6)   -2.5000         (X_U1.X_U5.N774212)    2.5000             

(X_U1.X_U5.N774290)    1.5000         (X_U1.X_U5.N778484)    2.2081             

(X_U1.X_U5.N778496)    2.2128         (X_U1.X_U5.N789513)    1.0000             

(X_U1.X_U5.N850209)    2.2128         (X_U1.X_U5.X_U10.4)    1.0000             

(X_U1.X_U5.N8491902)    2.4953        (X_U1.X_U2.X_U1.OUT2)   -2.5000           

(X_U1.X_U5.X_U7.VMID)    0.0000       (X_U1.X_U7.X_U5.OUT2)    0.0000           

(X_U1.X_U2.X_U21.OUT2)   -2.5000      (X_U1.X_U2.X_U22.OUT2)   -2.5000          

(X_U1.X_U2.X_U23.OUT2)   -2.5000      (X_U1.X_U7.X_U13.OUT1)    5.0000          

(X_U1.X_U7.X_U15.OUT2)    0.0000      (X_U1.X_U5.CONTROL_HIZ)    0.0000         

(X_U1.X_U5.CONTROL_MID)    1.0000     




    VOLTAGE SOURCE CURRENTS
    NAME         CURRENT

    V_V+1        9.610E-03
    V_VINN      -1.000E-06
    V_V+        -9.608E-03
    V_V1        -1.000E-06
    X_U1.V_VOS   0.000E+00
    X_U1.V_VHYST   0.000E+00
    X_U1.X_U2.V_VCMNP   0.000E+00
    X_U1.X_U2.V_VCMPN   0.000E+00
    X_U1.X_U2.V_VCMPP   0.000E+00
    X_U1.X_U2.V_VCMNN   0.000E+00
    X_U1.X_U5.V_VLOGIC   0.000E+00
    X_U1.X_U5.V_V1  -2.002E-09
    X_U1.X_U7.V_VS_MIN_SET   0.000E+00
    X_U1.X_U7.V_VS_MAX_SET   0.000E+00
    X_U1.X_U7.V_VLOGIC   0.000E+00

    TOTAL POWER DISSIPATION   4.80E-02  WATTS



          JOB CONCLUDED

**** 11/05/21 13:13:14 ******* PSpice 17.4.0 (Nov 2018) ******* ID# 0 ********

 ** Profile: "SCHEMATIC1-test1"  [ C:\Modeling\TLV3601_ti\TLV3601-PSpiceFiles\SCHEMATIC1\test1.sim ] 


 ****     JOB STATISTICS SUMMARY


******************************************************************************



  License check-out time            =       22.94
  Total job time (using Solver 1)   =         .41
